
T3770 000:301 SEGGER J-Link V5.00 Log File (0001ms, 0267ms total)
T3770 000:301 DLL Compiled: Jun  8 2015 21:22:48 (0001ms, 0267ms total)
T3770 000:301 Logging started @ 2019-07-24 12:08 (0001ms, 0267ms total)
T3770 000:302 JLINK_SetWarnOutHandler(...) (0000ms, 0267ms total)
T3770 000:302 JLINK_OpenEx(...)
Firmware: J-Link ARM-OB STM32 compiled Aug 22 2012 19:52:04
Hardware: V7.00
S/N: 20160407
Feature(s): RDI,FlashDL,FlashBP,JFlash,GDBFull  returns O.K. (0263ms, 0530ms total)
T3770 000:565 JLINK_SetErrorOutHandler(...) (0000ms, 0530ms total)
T3770 000:565 JLINK_ExecCommand("ProjectFile = "D:\×ÀÃæ\HCSR04Çý¶¯\HC-SR04\USER\JLinkSettings.ini"", ...)  returns 0x00 (0000ms, 0530ms total)
T3770 000:565 JLINK_ExecCommand("Device = STM32F103C8", ...)Device "STM32F103C8" selected.  returns 0x00 (0001ms, 0531ms total)
T3770 000:566 JLINK_ExecCommand("DisableConnectionTimeout", ...)  returns 0x01 (0000ms, 0531ms total)
T3770 000:566 JLINK_GetHardwareVersion()  returns 0x11170 (0000ms, 0531ms total)
T3770 000:566 JLINK_GetDLLVersion()  returns 50000 (0000ms, 0531ms total)
T3770 000:566 JLINK_GetFirmwareString(...) (0000ms, 0531ms total)
T3770 000:568 JLINK_GetDLLVersion()  returns 50000 (0000ms, 0531ms total)
T3770 000:568 JLINK_GetCompileDateTime() (0000ms, 0531ms total)
T3770 000:568 JLINK_GetFirmwareString(...) (0000ms, 0531ms total)
T3770 000:568 JLINK_GetHardwareVersion()  returns 0x11170 (0000ms, 0531ms total)
T3770 000:569 JLINK_TIF_Select(JLINKARM_TIF_SWD)  returns 0x00 (0001ms, 0532ms total)
T3770 000:570 JLINK_SetSpeed(10000) (0000ms, 0532ms total)
T3770 000:570 JLINK_GetId() >0x108 TIF>Found SWD-DP with ID 0x1BA01477 >0x0D TIF> >0x28 TIF> >0x0D TIF> >0x28 TIF> >0x0D TIF> >0x21 TIF> >0x0D TIF> >0x28 TIF> >0x0D TIF> >0x28 TIF> >0x0D TIF> >0x28 TIF> >0x0D TIF> >0x21 TIF> >0x0D TIF> >0x21 TIF> >0x0D TIF> >0x28 TIF> >0x0D TIF> >0x21 TIF> >0x0D TIF> >0x21 TIF> >0x108 TIF>Found SWD-DP with ID 0x1BA01477 >0x0D TIF> >0x21 TIF> >0x0D TIF> >0x28 TIF> >0x0D TIF> >0x28 TIF> >0x0D TIF> >0x21 TIF> >0x0D TIF> >0x28 TIF> >0x0D TIF> >0x21 TIF> >0x0D TIF> >0x21 TIF>
 >0x0D TIF> >0x21 TIF> >0x0D TIF> >0x21 TIF> >0x0D TIF> >0x28 TIF> >0x0D TIF> >0x28 TIF> >0x0D TIF> >0x21 TIF> >0x0D TIF> >0x28 TIF> >0x0D TIF> >0x28 TIF> >0x0D TIF> >0x28 TIF> >0x0D TIF> >0x21 TIF> >0x0D TIF> >0x21 TIF> >0x0D TIF> >0x28 TIF> >0x0D TIF> >0x21 TIF> >0x0D TIF> >0x21 TIF>Found Cortex-M3 r1p1, Little endian. -- CPU_WriteMem(4 bytes @ 0xE0002000) -- CPU_ReadMem(4 bytes @ 0xE000EDF0) -- CPU_ReadMem(4 bytes @ 0xE0002000)FPUnit: 6 code (BP) slots and 2 literal slots
 -- CPU_ReadMem(4 bytes @ 0xE000EDFC) -- CPU_ReadMem(4 bytes @ 0xE0001000) -- CPU_WriteMem(4 bytes @ 0xE0001000) -- CPU_ReadMem(4 bytes @ 0xE000ED88) -- CPU_WriteMem(4 bytes @ 0xE000ED88) -- CPU_ReadMem(4 bytes @ 0xE000ED88) -- CPU_WriteMem(4 bytes @ 0xE000ED88)CoreSight components:ROMTbl 0 @ E00FF000 -- CPU_ReadMem(16 bytes @ 0xE00FF000) -- CPU_ReadMem(16 bytes @ 0xE000EFF0) -- CPU_ReadMem(16 bytes @ 0xE000EFE0)ROMTbl 0 [0]: FFF0F000, CID: B105E00D, PID: 001BB000 SCS
 -- CPU_ReadMem(16 bytes @ 0xE0001FF0) -- CPU_ReadMem(16 bytes @ 0xE0001FE0)ROMTbl 0 [1]: FFF02000, CID: B105E00D, PID: 001BB002 DWT -- CPU_ReadMem(16 bytes @ 0xE0002FF0) -- CPU_ReadMem(16 bytes @ 0xE0002FE0)ROMTbl 0 [2]: FFF03000, CID: B105E00D, PID: 000BB003 FPB -- CPU_ReadMem(16 bytes @ 0xE0000FF0) -- CPU_ReadMem(16 bytes @ 0xE0000FE0)ROMTbl 0 [3]: FFF01000, CID: B105E00D, PID: 001BB001 ITM -- CPU_ReadMem(16 bytes @ 0xE00FF010) -- CPU_ReadMem(16 bytes @ 0xE0040FF0)
 -- CPU_ReadMem(16 bytes @ 0xE0040FE0)ROMTbl 0 [4]: FFF41000, CID: B105900D, PID: 001BB923 TPIU-Lite >0x0D TIF> >0x21 TIF>  returns 0x1BA01477 (0042ms, 0574ms total)
T3770 000:612 JLINK_GetDLLVersion()  returns 50000 (0000ms, 0574ms total)
T3770 000:612 JLINK_CORE_GetFound()  returns 0x30000FF (0000ms, 0574ms total)
T3770 000:612 JLINK_GetDebugInfo(0x100) -- Value=0xE00FF003  returns 0x00 (0000ms, 0574ms total)
T3770 000:612 JLINK_ReadMem (0xE00FF000, 0x0020 Bytes, ...) -- CPU is running -- CPU_ReadMem(32 bytes @ 0xE00FF000) - Data: 03 F0 F0 FF 03 20 F0 FF 03 30 F0 FF 03 10 F0 FF ...  returns 0x00 (0001ms, 0575ms total)
T3770 000:613 JLINK_ReadMem (0xE000EFF0, 0x0010 Bytes, ...) -- CPU is running -- CPU_ReadMem(16 bytes @ 0xE000EFF0) - Data: 0D 00 00 00 E0 00 00 00 05 00 00 00 B1 00 00 00  returns 0x00 (0001ms, 0576ms total)
T3770 000:614 JLINK_ReadMem (0xE000EFD0, 0x0020 Bytes, ...) -- CPU is running -- CPU_ReadMem(32 bytes @ 0xE000EFD0) - Data: 04 00 00 00 00 00 00 00 00 00 00 00 00 00 00 00 ...  returns 0x00 (0001ms, 0577ms total)
T3770 000:615 JLINK_ReadMem (0xE0001FF0, 0x0010 Bytes, ...) -- CPU is running -- CPU_ReadMem(16 bytes @ 0xE0001FF0) - Data: 0D 00 00 00 E0 00 00 00 05 00 00 00 B1 00 00 00  returns 0x00 (0001ms, 0578ms total)
T3770 000:616 JLINK_ReadMem (0xE0001FD0, 0x0020 Bytes, ...) -- CPU is running -- CPU_ReadMem(32 bytes @ 0xE0001FD0) - Data: 04 00 00 00 00 00 00 00 00 00 00 00 00 00 00 00 ...  returns 0x00 (0001ms, 0579ms total)
T3770 000:617 JLINK_ReadMem (0xE0002FF0, 0x0010 Bytes, ...) -- CPU is running -- CPU_ReadMem(16 bytes @ 0xE0002FF0) - Data: 0D 00 00 00 E0 00 00 00 05 00 00 00 B1 00 00 00  returns 0x00 (0001ms, 0580ms total)
T3770 000:618 JLINK_ReadMem (0xE0002FD0, 0x0020 Bytes, ...) -- CPU is running -- CPU_ReadMem(32 bytes @ 0xE0002FD0) - Data: 04 00 00 00 00 00 00 00 00 00 00 00 00 00 00 00 ...  returns 0x00 (0001ms, 0581ms total)
T3770 000:619 JLINK_ReadMem (0xE0000FF0, 0x0010 Bytes, ...) -- CPU is running -- CPU_ReadMem(16 bytes @ 0xE0000FF0) - Data: 0D 00 00 00 E0 00 00 00 05 00 00 00 B1 00 00 00  returns 0x00 (0001ms, 0582ms total)
T3770 000:620 JLINK_ReadMem (0xE0000FD0, 0x0020 Bytes, ...) -- CPU is running -- CPU_ReadMem(32 bytes @ 0xE0000FD0) - Data: 04 00 00 00 00 00 00 00 00 00 00 00 00 00 00 00 ...  returns 0x00 (0001ms, 0583ms total)
T3770 000:621 JLINK_ReadMem (0xE0040FF0, 0x0010 Bytes, ...) -- CPU is running -- CPU_ReadMem(16 bytes @ 0xE0040FF0) - Data: 0D 00 00 00 90 00 00 00 05 00 00 00 B1 00 00 00  returns 0x00 (0001ms, 0584ms total)
T3770 000:622 JLINK_ReadMem (0xE0040FD0, 0x0020 Bytes, ...) -- CPU is running -- CPU_ReadMem(32 bytes @ 0xE0040FD0) - Data: 04 00 00 00 00 00 00 00 00 00 00 00 00 00 00 00 ...  returns 0x00 (0001ms, 0585ms total)
T3770 000:623 JLINK_ReadMemU32(0xE000ED00, 0x0001 Items, ...) -- CPU is running -- CPU_ReadMem(4 bytes @ 0xE000ED00) - Data: 31 C2 1F 41  returns 0x01 (0000ms, 0585ms total)
T3770 000:623 JLINK_SetResetType(JLINKARM_RESET_TYPE_NORMAL)  returns JLINKARM_RESET_TYPE_NORMAL (0001ms, 0586ms total)
T3770 000:624 JLINK_Reset() -- CPU is running -- CPU_WriteMem(4 bytes @ 0xE000EDF0) -- CPU is running -- CPU_WriteMem(4 bytes @ 0xE000EDFC) >0x35 TIF> -- CPU is running -- CPU_WriteMem(4 bytes @ 0xE000ED0C) -- CPU is running -- CPU_ReadMem(4 bytes @ 0xE000EDF0) -- CPU is running -- CPU_ReadMem(4 bytes @ 0xE000EDF0) -- CPU is running -- CPU_WriteMem(4 bytes @ 0xE000EDF0) -- CPU is running -- CPU_WriteMem(4 bytes @ 0xE000EDFC) -- CPU is running -- CPU_ReadMem(4 bytes @ 0xE000EDF0)
 -- CPU_WriteMem(4 bytes @ 0xE0002000) -- CPU_ReadMem(4 bytes @ 0xE000EDFC) -- CPU_ReadMem(4 bytes @ 0xE0001000) (0023ms, 0609ms total)
T3770 000:647 JLINK_ReadReg(R15 (PC))  returns 0x08000100 (0000ms, 0609ms total)
T3770 000:647 JLINK_ReadReg(XPSR)  returns 0x01000000 (0000ms, 0609ms total)
T3770 000:647 JLINK_Halt()  returns 0x00 (0000ms, 0609ms total)
T3770 000:647 JLINK_IsHalted()  returns TRUE (0000ms, 0609ms total)
T3770 000:647 JLINK_ReadMemU32(0xE000EDF0, 0x0001 Items, ...) -- CPU_ReadMem(4 bytes @ 0xE000EDF0) - Data: 03 00 03 00  returns 0x01 (0001ms, 0610ms total)
T3770 000:648 JLINK_WriteU32(0xE000EDF0, 0xA05F0003) -- CPU_WriteMem(4 bytes @ 0xE000EDF0)  returns 0x00 (0001ms, 0611ms total)
T3770 000:649 JLINK_WriteU32(0xE000EDFC, 0x01000000) -- CPU_WriteMem(4 bytes @ 0xE000EDFC)  returns 0x00 (0001ms, 0612ms total)
T3770 000:651 JLINK_GetHWStatus(...)  returns 0x00 (0000ms, 0612ms total)
T3770 000:652 JLINK_GetNumBPUnits(Type = 0xFFFFFF00)  returns 0x06 (0000ms, 0612ms total)
T3770 000:652 JLINK_GetNumBPUnits(Type = 0xF0)  returns 0x2000 (0001ms, 0613ms total)
T3770 000:653 JLINK_GetNumWPUnits()  returns 0x04 (0000ms, 0613ms total)
T3770 000:654 JLINK_GetSpeed()  returns 0xFA0 (0000ms, 0613ms total)
T3770 000:655 JLINK_ReadMemU32(0xE000E004, 0x0001 Items, ...) -- CPU_ReadMem(4 bytes @ 0xE000E004) - Data: 01 00 00 00  returns 0x01 (0000ms, 0613ms total)
T3770 000:655 JLINK_ReadMemU32(0xE000E004, 0x0001 Items, ...) -- CPU_ReadMem(4 bytes @ 0xE000E004) - Data: 01 00 00 00  returns 0x01 (0001ms, 0614ms total)
T3770 000:656 JLINK_WriteMem(0xE0001000, 0x001C Bytes, ...) - Data: 01 00 00 00 00 00 00 00 00 00 00 00 00 00 00 00 ... -- CPU_WriteMem(28 bytes @ 0xE0001000)  returns 0x1C (0002ms, 0616ms total)
T3770 000:658 JLINK_ReadMem (0xE0001000, 0x001C Bytes, ...) -- CPU_ReadMem(28 bytes @ 0xE0001000) - Data: 01 00 00 40 00 00 00 00 00 00 00 00 00 00 00 00 ...  returns 0x00 (0001ms, 0617ms total)
T3770 000:659 JLINK_ReadReg(R15 (PC))  returns 0x08000100 (0000ms, 0617ms total)
T3770 000:659 JLINK_ReadReg(XPSR)  returns 0x01000000 (0000ms, 0617ms total)
T3770 000:736 JLINK_SetResetType(JLINKARM_RESET_TYPE_NORMAL)  returns JLINKARM_RESET_TYPE_NORMAL (0000ms, 0617ms total)
T3770 000:736 JLINK_Reset() -- CPU_WriteMem(4 bytes @ 0xE000EDF0) -- CPU_WriteMem(4 bytes @ 0xE000EDFC) >0x35 TIF> -- CPU_WriteMem(4 bytes @ 0xE000ED0C) -- CPU_ReadMem(4 bytes @ 0xE000EDF0) -- CPU_ReadMem(4 bytes @ 0xE000EDF0) -- CPU_WriteMem(4 bytes @ 0xE000EDF0) -- CPU_WriteMem(4 bytes @ 0xE000EDFC) -- CPU is running -- CPU_ReadMem(4 bytes @ 0xE000EDF0) -- CPU_WriteMem(4 bytes @ 0xE0002000) -- CPU_ReadMem(4 bytes @ 0xE000EDFC) -- CPU_ReadMem(4 bytes @ 0xE0001000) (0021ms, 0638ms total)
T3770 000:757 JLINK_ReadReg(R15 (PC))  returns 0x08000100 (0000ms, 0638ms total)
T3770 000:757 JLINK_ReadReg(XPSR)  returns 0x01000000 (0001ms, 0639ms total)
T3770 001:042 JLINK_ReadMem (0x080000EC, 0x003C Bytes, ...) -- CPU_ReadMem(128 bytes @ 0x080000C0) -- Updating C cache (128 bytes @ 0x080000C0) -- Read from C cache (60 bytes @ 0x080000EC) - Data: DF F8 0C D0 00 F0 74 FA 00 48 00 47 B1 1A 00 08 ...  returns 0x00 (0002ms, 0641ms total)
T3770 001:952 JLINK_ReadMem (0x00000000, 0x00D4 Bytes, ...) -- CPU_ReadMem(4 bytes @ 0x00000004) -- CPU_ReadMem(192 bytes @ 0x08000000) -- Updating C cache (192 bytes @ 0x08000000) -- Read from C cache (212 bytes @ 0x08000000) - Data: 00 05 00 20 01 01 00 08 AD 0A 00 08 A5 0A 00 08 ...  returns 0x00 (0003ms, 0644ms total)
T3770 003:083 JLINK_ReadMem (0x20000034, 0x0004 Bytes, ...) -- CPU_ReadMem(64 bytes @ 0x20000000) -- Updating C cache (64 bytes @ 0x20000000) -- Read from C cache (4 bytes @ 0x20000034) - Data: 00 00 00 00  returns 0x00 (0002ms, 0646ms total)
T3710 003:115 JLINK_SetBPEx(Addr = 0x08001AB0, Type = 0xFFFFFFF2)  returns 0x00000001 (0000ms, 0646ms total)
T3710 003:115 JLINK_Go() -- CPU_WriteMem(4 bytes @ 0xE0002000) -- CPU_ReadMem(4 bytes @ 0xE0001000) -- CPU_WriteMem(4 bytes @ 0xE0002008) -- CPU_WriteMem(4 bytes @ 0xE000200C) -- CPU_WriteMem(4 bytes @ 0xE0002010) -- CPU_WriteMem(4 bytes @ 0xE0002014) -- CPU_WriteMem(4 bytes @ 0xE0002018) -- CPU_WriteMem(4 bytes @ 0xE000201C) -- CPU_WriteMem(4 bytes @ 0xE0001004) (0006ms, 0652ms total)
T3710 003:221 JLINK_IsHalted()  returns TRUE (0003ms, 0655ms total)
T3710 003:224 JLINK_Halt()  returns 0x00 (0000ms, 0652ms total)
T3710 003:224 JLINK_IsHalted()  returns TRUE (0000ms, 0652ms total)
T3710 003:224 JLINK_IsHalted()  returns TRUE (0000ms, 0652ms total)
T3710 003:224 JLINK_IsHalted()  returns TRUE (0000ms, 0652ms total)
T3710 003:224 JLINK_ReadReg(R15 (PC))  returns 0x08001AB0 (0000ms, 0652ms total)
T3710 003:224 JLINK_ReadReg(XPSR)  returns 0x61000000 (0000ms, 0652ms total)
T3710 003:224 JLINK_ClrBPEx(BPHandle = 0x00000001)  returns 0x00 (0000ms, 0652ms total)
T3710 003:224 JLINK_ReadMemU32(0xE000ED30, 0x0001 Items, ...) -- CPU_ReadMem(4 bytes @ 0xE000ED30) - Data: 03 00 00 00  returns 0x01 (0001ms, 0653ms total)
T3710 003:225 JLINK_ReadMemU32(0xE0001028, 0x0001 Items, ...) -- CPU_ReadMem(4 bytes @ 0xE0001028) - Data: 00 00 00 00  returns 0x01 (0001ms, 0654ms total)
T3710 003:226 JLINK_ReadMemU32(0xE0001038, 0x0001 Items, ...) -- CPU_ReadMem(4 bytes @ 0xE0001038) - Data: 00 02 00 00  returns 0x01 (0000ms, 0654ms total)
T3710 003:226 JLINK_ReadMemU32(0xE0001048, 0x0001 Items, ...) -- CPU_ReadMem(4 bytes @ 0xE0001048) - Data: 00 00 00 00  returns 0x01 (0002ms, 0656ms total)
T3710 003:228 JLINK_ReadMemU32(0xE0001058, 0x0001 Items, ...) -- CPU_ReadMem(4 bytes @ 0xE0001058) - Data: 00 00 00 00  returns 0x01 (0000ms, 0656ms total)
T3710 003:229 JLINK_ReadReg(R0)  returns 0x08001AB1 (0000ms, 0656ms total)
T3710 003:229 JLINK_ReadReg(R1)  returns 0x20000500 (0000ms, 0656ms total)
T3710 003:229 JLINK_ReadReg(R2)  returns 0x00000000 (0000ms, 0656ms total)
T3710 003:229 JLINK_ReadReg(R3)  returns 0x08001115 (0000ms, 0656ms total)
T3710 003:229 JLINK_ReadReg(R4)  returns 0x08001B9C (0000ms, 0656ms total)
T3710 003:229 JLINK_ReadReg(R5)  returns 0x08001B9C (0000ms, 0656ms total)
T3710 003:229 JLINK_ReadReg(R6)  returns 0x00000000 (0000ms, 0656ms total)
T3710 003:229 JLINK_ReadReg(R7)  returns 0x00000000 (0000ms, 0656ms total)
T3710 003:229 JLINK_ReadReg(R8)  returns 0x00000000 (0000ms, 0656ms total)
T3710 003:229 JLINK_ReadReg(R9)  returns 0x20000160 (0000ms, 0656ms total)
T3710 003:229 JLINK_ReadReg(R10)  returns 0x00000000 (0000ms, 0656ms total)
T3710 003:229 JLINK_ReadReg(R11)  returns 0x00000000 (0000ms, 0656ms total)
T3710 003:229 JLINK_ReadReg(R12)  returns 0x00000040 (0000ms, 0656ms total)
T3710 003:229 JLINK_ReadReg(R13 (SP))  returns 0x20000500 (0000ms, 0656ms total)
T3710 003:229 JLINK_ReadReg(R14)  returns 0x080005F9 (0000ms, 0656ms total)
T3710 003:229 JLINK_ReadReg(R15 (PC))  returns 0x08001AB0 (0000ms, 0656ms total)
T3710 003:229 JLINK_ReadReg(XPSR)  returns 0x61000000 (0000ms, 0656ms total)
T3710 003:229 JLINK_ReadReg(MSP)  returns 0x20000500 (0000ms, 0656ms total)
T3710 003:229 JLINK_ReadReg(PSP)  returns 0x20001000 (0000ms, 0656ms total)
T3710 003:229 JLINK_ReadReg(CFBP)  returns 0x00000000 (0000ms, 0656ms total)
T3770 003:236 JLINK_ReadMem (0x20000034, 0x0004 Bytes, ...) -- CPU_ReadMem(64 bytes @ 0x20000000) -- Updating C cache (64 bytes @ 0x20000000) -- Read from C cache (4 bytes @ 0x20000034) - Data: 00 00 00 00  returns 0x00 (0000ms, 0656ms total)
T3770 003:241 JLINK_ReadMem (0x080019B0, 0x003C Bytes, ...) -- CPU_ReadMem(128 bytes @ 0x08001980) -- Updating C cache (128 bytes @ 0x08001980) -- Read from C cache (60 bytes @ 0x080019B0) - Data: 28 46 BD E8 F0 81 00 00 10 B5 6F F0 04 00 FF F7 ...  returns 0x00 (0002ms, 0658ms total)
T3770 003:243 JLINK_ReadMem (0x080019FC, 0x003C Bytes, ...) -- CPU_ReadMem(64 bytes @ 0x08001A00) -- Updating C cache (64 bytes @ 0x08001A00) -- Read from C cache (60 bytes @ 0x080019FC) - Data: 01 46 11 4A 12 88 4A 43 4F F0 E0 23 5A 61 00 22 ...  returns 0x00 (0001ms, 0659ms total)
T3770 003:244 JLINK_ReadMem (0x08001A38, 0x003C Bytes, ...) -- CPU_ReadMem(64 bytes @ 0x08001A40) -- Updating C cache (64 bytes @ 0x08001A40) -- Read from C cache (60 bytes @ 0x08001A38) - Data: 4F F0 E0 23 1A 61 00 22 9A 61 70 47 16 00 00 20 ...  returns 0x00 (0002ms, 0661ms total)
T3770 003:246 JLINK_ReadMem (0x08001A74, 0x003C Bytes, ...) -- CPU_ReadMem(64 bytes @ 0x08001A80) -- Updating C cache (64 bytes @ 0x08001A80) -- Read from C cache (60 bytes @ 0x08001A74) - Data: 80 32 00 2A F5 D0 4F F0 E0 22 12 69 22 F0 01 02 ...  returns 0x00 (0002ms, 0663ms total)
T3770 003:248 JLINK_ReadMem (0x08001AB0, 0x003C Bytes, ...) -- CPU_ReadMem(64 bytes @ 0x08001AC0) -- Updating C cache (64 bytes @ 0x08001AC0) -- Read from C cache (60 bytes @ 0x08001AB0) - Data: FF F7 82 FF 4F F4 A0 60 FF F7 32 F8 4F F4 E1 30 ...  returns 0x00 (0001ms, 0664ms total)
T3710 004:731 JLINK_Go() -- CPU_ReadMem(4 bytes @ 0xE0001000) -- CPU_WriteMem(4 bytes @ 0xE0002008) (0002ms, 0666ms total)
T3710 004:833 JLINK_IsHalted()  returns FALSE (0000ms, 0666ms total)
T3710 004:934 JLINK_IsHalted()  returns FALSE (0000ms, 0666ms total)
T3710 005:035 JLINK_IsHalted()  returns FALSE (0001ms, 0667ms total)
T3710 005:136 JLINK_IsHalted()  returns FALSE (0001ms, 0667ms total)
T3710 005:237 JLINK_IsHalted()  returns FALSE (0001ms, 0667ms total)
T3710 005:339 JLINK_ReadMemU32(0xE0001004, 0x0001 Items, ...) -- CPU is running -- CPU_ReadMem(4 bytes @ 0xE0001004) - Data: 2A 4B 9A 02  returns 0x01 (0000ms, 0666ms total)
T3770 005:339 JLINK_ReadMem (0x20000034, 0x0004 Bytes, ...) -- CPU is running -- CPU_ReadMem(4 bytes @ 0x20000034) - Data: 00 00 00 00  returns 0x00 (0001ms, 0667ms total)
T3710 005:340 JLINK_IsHalted()  returns FALSE (0001ms, 0668ms total)
T3710 005:442 JLINK_IsHalted()  returns FALSE (0001ms, 0668ms total)
T3710 005:544 JLINK_IsHalted()  returns FALSE (0000ms, 0667ms total)
T3710 005:645 JLINK_IsHalted()  returns FALSE (0001ms, 0668ms total)
T3710 005:747 JLINK_IsHalted()  returns FALSE (0001ms, 0668ms total)
T3710 005:848 JLINK_IsHalted()  returns FALSE (0002ms, 0669ms total)
T3710 005:950 JLINK_ReadMemU32(0xE0001004, 0x0001 Items, ...) -- CPU is running -- CPU_ReadMem(4 bytes @ 0xE0001004) - Data: 4D F8 39 05  returns 0x01 (0001ms, 0668ms total)
T3770 005:951 JLINK_ReadMem (0x20000034, 0x0004 Bytes, ...) -- CPU is running -- CPU_ReadMem(4 bytes @ 0x20000034) - Data: 00 00 00 00  returns 0x00 (0000ms, 0668ms total)
T3710 005:951 JLINK_IsHalted()  returns FALSE (0002ms, 0670ms total)
T3710 006:054 JLINK_IsHalted()  returns FALSE (0001ms, 0669ms total)
T3710 006:156 JLINK_IsHalted()  returns FALSE (0001ms, 0669ms total)
T3710 006:258 JLINK_IsHalted()  returns FALSE (0000ms, 0668ms total)
T3710 006:360 JLINK_IsHalted()  returns FALSE (0000ms, 0668ms total)
T3710 006:461 JLINK_ReadMemU32(0xE0001004, 0x0001 Items, ...) -- CPU is running -- CPU_ReadMem(4 bytes @ 0xE0001004) - Data: 96 2F 6B 07  returns 0x01 (0001ms, 0669ms total)
T3770 006:462 JLINK_ReadMem (0x20000034, 0x0004 Bytes, ...) -- CPU is running -- CPU_ReadMem(4 bytes @ 0x20000034) - Data: 00 00 00 00  returns 0x00 (0001ms, 0670ms total)
T3710 006:463 JLINK_IsHalted()  returns FALSE (0001ms, 0671ms total)
T3710 006:565 JLINK_IsHalted()  returns FALSE (0001ms, 0671ms total)
T3710 006:666 JLINK_IsHalted()  returns FALSE (0000ms, 0670ms total)
T3710 006:768 JLINK_IsHalted()  returns FALSE (0001ms, 0671ms total)
T3710 006:870 JLINK_IsHalted()  returns FALSE (0000ms, 0670ms total)
T3770 006:927 JLINK_ReadMem (0x40000400, 0x0002 Bytes, ...) -- CPU is running -- CPU_ReadMem(2 bytes @ 0x40000400) - Data: 00 00  returns 0x00 (0001ms, 0671ms total)
T3770 006:928 JLINK_ReadMem (0x40000402, 0x0002 Bytes, ...) -- CPU is running -- CPU_ReadMem(2 bytes @ 0x40000402) - Data: 00 00  returns 0x00 (0001ms, 0672ms total)
T3770 006:929 JLINK_ReadMem (0x40000404, 0x0002 Bytes, ...) -- CPU is running -- CPU_ReadMem(2 bytes @ 0x40000404) - Data: 00 00  returns 0x00 (0001ms, 0673ms total)
T3770 006:930 JLINK_ReadMem (0x40000406, 0x0002 Bytes, ...) -- CPU is running -- CPU_ReadMem(2 bytes @ 0x40000406) - Data: 00 00  returns 0x00 (0001ms, 0674ms total)
T3770 006:931 JLINK_ReadMem (0x40000408, 0x0002 Bytes, ...) -- CPU is running -- CPU_ReadMem(2 bytes @ 0x40000408) - Data: 00 00  returns 0x00 (0000ms, 0674ms total)
T3770 006:931 JLINK_ReadMem (0x4000040A, 0x0002 Bytes, ...) -- CPU is running -- CPU_ReadMem(2 bytes @ 0x4000040A) - Data: 00 00  returns 0x00 (0001ms, 0675ms total)
T3770 006:933 JLINK_ReadMem (0x4000040C, 0x0002 Bytes, ...) -- CPU is running -- CPU_ReadMem(2 bytes @ 0x4000040C) - Data: 00 00  returns 0x00 (0000ms, 0675ms total)
T3770 006:933 JLINK_ReadMem (0x4000040E, 0x0002 Bytes, ...) -- CPU is running -- CPU_ReadMem(2 bytes @ 0x4000040E) - Data: 00 00  returns 0x00 (0002ms, 0677ms total)
T3770 006:935 JLINK_ReadMem (0x40000410, 0x0002 Bytes, ...) -- CPU is running -- CPU_ReadMem(2 bytes @ 0x40000410) - Data: 01 00  returns 0x00 (0000ms, 0677ms total)
T3770 006:935 JLINK_ReadMem (0x40000412, 0x0002 Bytes, ...) -- CPU is running -- CPU_ReadMem(2 bytes @ 0x40000412) - Data: 00 00  returns 0x00 (0001ms, 0678ms total)
T3770 006:936 JLINK_ReadMem (0x40000414, 0x0002 Bytes, ...) -- CPU is running -- CPU_ReadMem(2 bytes @ 0x40000414) - Data: 00 00  returns 0x00 (0000ms, 0678ms total)
T3770 006:936 JLINK_ReadMem (0x40000416, 0x0002 Bytes, ...) -- CPU is running -- CPU_ReadMem(2 bytes @ 0x40000416) - Data: 00 00  returns 0x00 (0000ms, 0678ms total)
T3770 006:936 JLINK_ReadMem (0x40000418, 0x0002 Bytes, ...) -- CPU is running -- CPU_ReadMem(2 bytes @ 0x40000418) - Data: 00 00  returns 0x00 (0001ms, 0679ms total)
T3770 006:937 JLINK_ReadMem (0x4000041A, 0x0002 Bytes, ...) -- CPU is running -- CPU_ReadMem(2 bytes @ 0x4000041A) - Data: 00 00  returns 0x00 (0001ms, 0680ms total)
T3770 006:938 JLINK_ReadMem (0x4000041C, 0x0002 Bytes, ...) -- CPU is running -- CPU_ReadMem(2 bytes @ 0x4000041C) - Data: 00 00  returns 0x00 (0001ms, 0681ms total)
T3770 006:939 JLINK_ReadMem (0x4000041E, 0x0002 Bytes, ...) -- CPU is running -- CPU_ReadMem(2 bytes @ 0x4000041E) - Data: 00 00  returns 0x00 (0001ms, 0682ms total)
T3770 006:940 JLINK_ReadMem (0x40000420, 0x0002 Bytes, ...) -- CPU is running -- CPU_ReadMem(2 bytes @ 0x40000420) - Data: 00 00  returns 0x00 (0001ms, 0683ms total)
T3770 006:941 JLINK_ReadMem (0x40000422, 0x0002 Bytes, ...) -- CPU is running -- CPU_ReadMem(2 bytes @ 0x40000422) - Data: 00 00  returns 0x00 (0001ms, 0684ms total)
T3770 006:942 JLINK_ReadMem (0x40000424, 0x0002 Bytes, ...) -- CPU is running -- CPU_ReadMem(2 bytes @ 0x40000424) - Data: 00 00  returns 0x00 (0001ms, 0685ms total)
T3770 006:943 JLINK_ReadMem (0x40000426, 0x0002 Bytes, ...) -- CPU is running -- CPU_ReadMem(2 bytes @ 0x40000426) - Data: 00 00  returns 0x00 (0001ms, 0686ms total)
T3770 006:944 JLINK_ReadMem (0x40000428, 0x0002 Bytes, ...) -- CPU is running -- CPU_ReadMem(2 bytes @ 0x40000428) - Data: 47 00  returns 0x00 (0001ms, 0687ms total)
T3770 006:945 JLINK_ReadMem (0x4000042A, 0x0002 Bytes, ...) -- CPU is running -- CPU_ReadMem(2 bytes @ 0x4000042A) - Data: 00 00  returns 0x00 (0001ms, 0688ms total)
T3770 006:946 JLINK_ReadMem (0x4000042C, 0x0002 Bytes, ...) -- CPU is running -- CPU_ReadMem(2 bytes @ 0x4000042C) - Data: FF FF  returns 0x00 (0001ms, 0689ms total)
T3770 006:947 JLINK_ReadMem (0x4000042E, 0x0002 Bytes, ...) -- CPU is running -- CPU_ReadMem(2 bytes @ 0x4000042E) - Data: 00 00  returns 0x00 (0000ms, 0689ms total)
T3770 006:947 JLINK_ReadMem (0x40000430, 0x0002 Bytes, ...) -- CPU is running -- CPU_ReadMem(2 bytes @ 0x40000430) - Data: 00 00  returns 0x00 (0001ms, 0690ms total)
T3770 006:948 JLINK_ReadMem (0x40000432, 0x0002 Bytes, ...) -- CPU is running -- CPU_ReadMem(2 bytes @ 0x40000432) - Data: 00 00  returns 0x00 (0000ms, 0690ms total)
T3770 006:948 JLINK_ReadMem (0x40000434, 0x0002 Bytes, ...) -- CPU is running -- CPU_ReadMem(2 bytes @ 0x40000434) - Data: 00 00  returns 0x00 (0002ms, 0692ms total)
T3770 006:950 JLINK_ReadMem (0x40000436, 0x0002 Bytes, ...) -- CPU is running -- CPU_ReadMem(2 bytes @ 0x40000436) - Data: 00 00  returns 0x00 (0000ms, 0692ms total)
T3770 006:950 JLINK_ReadMem (0x40000438, 0x0002 Bytes, ...) -- CPU is running -- CPU_ReadMem(2 bytes @ 0x40000438) - Data: 00 00  returns 0x00 (0000ms, 0692ms total)
T3770 006:950 JLINK_ReadMem (0x4000043A, 0x0002 Bytes, ...) -- CPU is running -- CPU_ReadMem(2 bytes @ 0x4000043A) - Data: 00 00  returns 0x00 (0001ms, 0693ms total)
T3770 006:951 JLINK_ReadMem (0x4000043C, 0x0002 Bytes, ...) -- CPU is running -- CPU_ReadMem(2 bytes @ 0x4000043C) - Data: 00 00  returns 0x00 (0001ms, 0694ms total)
T3770 006:952 JLINK_ReadMem (0x4000043E, 0x0002 Bytes, ...) -- CPU is running -- CPU_ReadMem(2 bytes @ 0x4000043E) - Data: 00 00  returns 0x00 (0000ms, 0694ms total)
T3770 006:952 JLINK_ReadMem (0x40000440, 0x0002 Bytes, ...) -- CPU is running -- CPU_ReadMem(2 bytes @ 0x40000440) - Data: 00 00  returns 0x00 (0001ms, 0695ms total)
T3770 006:953 JLINK_ReadMem (0x40000442, 0x0002 Bytes, ...) -- CPU is running -- CPU_ReadMem(2 bytes @ 0x40000442) - Data: 00 00  returns 0x00 (0000ms, 0695ms total)
T3770 006:953 JLINK_ReadMem (0x40000444, 0x0002 Bytes, ...) -- CPU is running -- CPU_ReadMem(2 bytes @ 0x40000444) - Data: 00 00  returns 0x00 (0001ms, 0696ms total)
T3770 006:954 JLINK_ReadMem (0x40000446, 0x0002 Bytes, ...) -- CPU is running -- CPU_ReadMem(2 bytes @ 0x40000446) - Data: 00 00  returns 0x00 (0001ms, 0697ms total)
T3770 006:955 JLINK_ReadMem (0x40000448, 0x0002 Bytes, ...) -- CPU is running -- CPU_ReadMem(2 bytes @ 0x40000448) - Data: 00 00  returns 0x00 (0000ms, 0697ms total)
T3770 006:955 JLINK_ReadMem (0x4000044A, 0x0002 Bytes, ...) -- CPU is running -- CPU_ReadMem(2 bytes @ 0x4000044A) - Data: 00 00  returns 0x00 (0001ms, 0698ms total)
T3770 006:956 JLINK_ReadMem (0x4000044C, 0x0002 Bytes, ...) -- CPU is running -- CPU_ReadMem(2 bytes @ 0x4000044C) - Data: 00 00  returns 0x00 (0001ms, 0699ms total)
